
T3AC0 029:593 SEGGER J-Link V4.52a Log File (0004ms, 0474ms total)
T3AC0 029:593 DLL Compiled: Aug 17 2012 17:59:04 (0008ms, 0478ms total)
T3AC0 029:593 Logging started @ 2018-12-19 20:46 (0008ms, 0478ms total)
T3AC0 029:601 JLINK_SetWarnOutHandler(...) (0000ms, 0478ms total)
T3AC0 029:602 JLINK_OpenEx(...)
Firmware: J-Link ARM-OB STM32 compiled Dec 15 2010 11:30:03
Hardware: V7.00
S/N: 20090928
Feature(s): RDI,FlashDL,FlashBP,JFlash,GDBFull  returns O.K. (0098ms, 0577ms total)
T3AC0 029:700 JLINK_GetEmuCaps()  returns 0x88EA5833 (0001ms, 0578ms total)
T3AC0 029:701 JLINK_TIF_GetAvailable(...) (0003ms, 0581ms total)
T3AC0 029:715 JLINK_SetErrorOutHandler(...) (0001ms, 0582ms total)
T3AC0 029:716 JLINK_ExecCommand("ProjectFile = "\\Mac\Home\Desktop\Events\lesson_design\UCOS_UCGUIµÄ¸±±¾\uVision3\JLinkSettings.ini"", ...)  returns 0x00 (0250ms, 0832ms total)
T3AC0 030:123 JLINK_ExecCommand("Device = STM32F103VC", ...)
                JLINK_ExecCommand("map ram 0x20000000 - 0x2000BFFF", ...)  returns 0x00 (0000ms, 0000ms total)
                JLINK_AddMirrorAreaEx(Addr = 0x00000000, Size = 0x00000000) (0000ms, 0000ms total)
              Device "STM32F103VC" selected (256 KB flash, 48 KB RAM).  returns 0x00 (0062ms, 0895ms total)
T3AC0 030:186 JLINK_ExecCommand("DisableConnectionTimeout", ...)  returns 0x00 (0000ms, 0895ms total)
T3AC0 030:187 JLINK_GetHardwareVersion()  returns 0x11170 (0000ms, 0896ms total)
T3AC0 030:187 JLINK_GetDLLVersion()  returns 45201 (0002ms, 0898ms total)
T3AC0 030:189 JLINK_GetFirmwareString(...) (0000ms, 0898ms total)
T3AC0 030:227 JLINK_GetDLLVersion()  returns 45201 (0001ms, 0900ms total)
T3AC0 030:229 JLINK_GetCompileDateTime() (0001ms, 0902ms total)
T3AC0 030:255 JLINK_GetFirmwareString(...) (0000ms, 0902ms total)
T3AC0 030:269 JLINK_GetHardwareVersion()  returns 0x11170 (0000ms, 0903ms total)
T3AC0 030:382 JLINK_TIF_Select(JLINKARM_TIF_SWD)  returns 0x00 (0017ms, 0921ms total)
T3AC0 030:399 JLINK_SetSpeed(5000) (0003ms, 0924ms total)
T3AC0 030:402 JLINK_GetId() >0x108 TIF>Found SWD-DP with ID 0x1BA01477 >0x0D TIF> >0x28 TIF> >0x0D TIF> >0x28 TIF> >0x0D TIF> >0x21 TIF> >0x0D TIF> >0x28 TIF> >0x0D TIF> >0x28 TIF> >0x0D TIF> >0x28 TIF> >0x0D TIF> >0x21 TIF> >0x0D TIF> >0x21 TIF> >0x0D TIF> >0x28 TIF> >0x0D TIF> >0x21 TIF> >0x0D TIF> >0x21 TIF> >0x0D TIF> >0x28 TIF> >0x0D TIF> >0x28 TIF> >0x108 TIF>Found SWD-DP with ID 0x1BA01477 >0x0D TIF> >0x21 TIF> >0x0D TIF> >0x28 TIF> >0x0D TIF> >0x28 TIF> >0x0D TIF> >0x21 TIF> >0x0D TIF> >0x21 TIF>
 >0x0D TIF> >0x28 TIF> >0x0D TIF> >0x21 TIF> >0x0D TIF> >0x21 TIF> >0x0D TIF> >0x21 TIF> >0x0D TIF> >0x21 TIF> >0x0D TIF> >0x28 TIF> >0x0D TIF> >0x21 TIF> >0x0D TIF> >0x28 TIF> >0x0D TIF> >0x28 TIF> >0x0D TIF> >0x21 TIF> >0x0D TIF> >0x21 TIF> >0x0D TIF> >0x28 TIF> >0x0D TIF> >0x21 TIF> >0x0D TIF> >0x21 TIF> >0x0D TIF> >0x28 TIF> >0x0D TIF> >0x28 TIF> >0x0D TIF> >0x28 TIF> >0x0D TIF> >0x21 TIF> >0x0D TIF> >0x21 TIF> >0x0D TIF> >0x28 TIF> >0x0D TIF> >0x28 TIF> >0x0D TIF> >0x28 TIF> >0x0D TIF> >0x28 TIF>
 >0x0D TIF> >0x28 TIF> >0x0D TIF> >0x21 TIF> >0x0D TIF> >0x21 TIF> >0x0D TIF> >0x21 TIF>TPIU fitted.ETM fitted. >0x0D TIF> >0x28 TIF> >0x0D TIF> >0x21 TIF> >0x0D TIF> >0x21 TIF> >0x0D TIF> >0x28 TIF> >0x0D TIF> >0x21 TIF> >0x0D TIF> >0x21 TIF>FPUnit: 6 code (BP) slots and 2 literal slots >0x0D TIF> >0x28 TIF> >0x0D TIF> >0x21 TIF> >0x0D TIF> >0x21 TIF> >0x0D TIF> >0x28 TIF> >0x0D TIF> >0x28 TIF> >0x0D TIF> >0x28 TIF> >0x0D TIF> >0x21 TIF> >0x0D TIF> >0x21 TIF> >0x0D TIF> >0x28 TIF> >0x0D TIF> >0x21 TIF>
 >0x0D TIF> >0x21 TIF> >0x0D TIF> >0x28 TIF> >0x0D TIF> >0x21 TIF> >0x0D TIF> >0x21 TIF>Found Cortex-M3 r1p1, Little endian. >0x0D TIF> >0x28 TIF> >0x0D TIF> >0x21 TIF>  returns 0x1BA01477 (0732ms, 1656ms total)
T3AC0 031:141 JLINK_GetDLLVersion()  returns 45201 (0001ms, 1657ms total)
T3AC0 031:168 JLINK_CORE_GetFound()  returns 0x30000FF (0013ms, 1696ms total)
T3AC0 031:194 JLINK_GetDebugInfo(0x100) -- Value=0xE00FF003  returns 0x00 (0001ms, 1698ms total)
T3AC0 031:195 JLINK_GetDebugInfo(0x101)  returns 0xFFFFFFFF (0001ms, 1699ms total)
T3AC0 031:196 JLINK_ReadMemEx(0xE0041FF0, 0x0010 Bytes, ..., AccessWidth = 33554436) -- CPU is running -- CPU_ReadMem(16 bytes @ 0xE0041FF0) -- Data:  0D 00 00 00 90 00 00 00 05 00 00 00 B1 00 00 00  returns 0x10 (0008ms, 1707ms total)
T3AC0 031:205 JLINK_GetDebugInfo(0x102)  returns 0xFFFFFFFF (0000ms, 1708ms total)
T3AC0 031:206 JLINK_GetDebugInfo(0x103)  returns 0xFFFFFFFF (0000ms, 1709ms total)
T3AC0 031:206 JLINK_ReadMemEx(0xE0040FF0, 0x0010 Bytes, ..., AccessWidth = 33554436) -- CPU is running -- CPU_ReadMem(16 bytes @ 0xE0040FF0) -- Data:  0D 00 00 00 90 00 00 00 05 00 00 00 B1 00 00 00  returns 0x10 (0007ms, 1716ms total)
T3AC0 031:213 JLINK_GetDebugInfo(0x104)  returns 0xFFFFFFFF (0001ms, 1717ms total)
T3AC0 031:214 JLINK_GetDebugInfo(0x105)  returns 0xFFFFFFFF (0001ms, 1718ms total)
T3AC0 031:215 JLINK_GetDebugInfo(0x106)  returns 0xFFFFFFFF (0000ms, 1718ms total)
T3AC0 031:215 JLINK_GetDebugInfo(0x107)  returns 0xFFFFFFFF (0001ms, 1719ms total)
T3AC0 031:216 JLINK_GetDebugInfo(0x10C)  returns 0xFFFFFFFF (0000ms, 1719ms total)
T3AC0 031:216 JLINK_GetDebugInfo(0x01)  returns 0xFFFFFFFF (0001ms, 1720ms total)
T3AC0 031:217 JLINK_GetDeviceFamily()  returns 3 (0007ms, 1727ms total)
T3AC0 031:224 JLINK_ReadMemU32(0xE000ED00, 0x0001 Items, ...) -- CPU is running -- CPU_ReadMem(4 bytes @ 0xE000ED00) -- Data:  31 C2 1F 41  returns 0x01 (0003ms, 1730ms total)
T3AC0 031:227 JLINK_GetDebugInfo(0x10F)  returns 0xFFFFFFFF (0001ms, 1731ms total)
T3AC0 031:229 JLINK_SetResetType(JLINKARM_RESET_TYPE_NORMAL)  returns JLINKARM_RESET_TYPE_NORMAL (0000ms, 1732ms total)
T3AC0 031:229 JLINK_Reset() -- CPU_WriteMem(4 bytes @ 0xE0002000) (0038ms, 1770ms total)
T3AC0 031:267 JLINK_Halt()  returns 0x00 (0000ms, 1770ms total)
T3AC0 031:267 JLINK_ReadMemU32(0xE000EDF0, 0x0001 Items, ...) -- CPU_ReadMem(4 bytes @ 0xE000EDF0) -- Data:  03 00 03 00  returns 0x01 (0012ms, 1782ms total)
T3AC0 031:279 JLINK_WriteU32(0xE000EDF0, 0xA05F0003) -- CPU_WriteMem(4 bytes @ 0xE000EDF0)  returns 0x00 (0005ms, 1787ms total)
T3AC0 031:284 JLINK_WriteU32(0xE000EDFC, 0x01000000) -- CPU_WriteMem(4 bytes @ 0xE000EDFC)  returns 0x00 (0005ms, 1792ms total)
T3AC0 031:320 JLINK_GetHWStatus(...)  returns 0x00 (0006ms, 1798ms total)
T3AC0 031:355 JLINK_GetNumBPUnits(Type = 0xFFFFFF00)  returns 0x06 (0010ms, 1808ms total)
T3AC0 031:365 JLINK_GetNumBPUnits(Type = 0xF0)  returns 0x2000 (0001ms, 1809ms total)
T3AC0 031:367 JLINK_GetNumWPUnits()  returns 0x04 (0000ms, 1810ms total)
T3AC0 031:406 JLINK_GetSpeed()  returns 0xFA0 (0002ms, 1812ms total)
T3AC0 031:447 JLINK_ReadMemU32(0xE000E004, 0x0001 Items, ...) -- CPU_ReadMem(4 bytes @ 0xE000E004) -- Data:  01 00 00 00  returns 0x01 (0009ms, 1821ms total)
T3AC0 031:456 JLINK_ReadMemU32(0xE000E004, 0x0001 Items, ...) -- CPU_ReadMem(4 bytes @ 0xE000E004) -- Data:  01 00 00 00  returns 0x01 (0008ms, 1829ms total)
T3AC0 031:464 JLINK_WriteMemEx(0xE0001000, 0x001C Bytes, ..., AccessWidth = 33554436) -- Data:  01 00 00 00 00 00 00 00 00 00 00 00 00 00 00 00 ... -- CPU_WriteMem(28 bytes @ 0xE0001000)  returns 0x1C (0005ms, 1834ms total)
T3AC0 031:469 JLINK_Halt()  returns 0x00 (0000ms, 1834ms total)
T3AC0 031:470 JLINK_IsHalted()  returns TRUE (0000ms, 1835ms total)
T3AC0 031:499 JLINK_WriteMem(0x20000000, 0x0164 Bytes, ...) -- Data:  00 BE 0A E0 0D 78 2D 06 68 40 08 24 40 00 00 D3 ... -- CPU_WriteMem(356 bytes @ 0x20000000)  returns 0x164 (0008ms, 1843ms total)
T3AC0 031:508 JLINK_WriteReg(R0, 0x08000000)  returns 0x00 (0000ms, 1843ms total)
T3AC0 031:508 JLINK_WriteReg(R1, 0x00B71B00)  returns 0x00 (0000ms, 1843ms total)
T3AC0 031:508 JLINK_WriteReg(R2, 0x00000001)  returns 0x00 (0000ms, 1843ms total)
T3AC0 031:508 JLINK_WriteReg(R3, 0x00000000)  returns 0x00 (0001ms, 1844ms total)
T3AC0 031:509 JLINK_WriteReg(R4, 0x00000000)  returns 0x00 (0000ms, 1844ms total)
T3AC0 031:509 JLINK_WriteReg(R5, 0x00000000)  returns 0x00 (0000ms, 1844ms total)
T3AC0 031:509 JLINK_WriteReg(R6, 0x00000000)  returns 0x00 (0001ms, 1845ms total)
T3AC0 031:510 JLINK_WriteReg(R7, 0x00000000)  returns 0x00 (0000ms, 1845ms total)
T3AC0 031:510 JLINK_WriteReg(R8, 0x00000000)  returns 0x00 (0001ms, 1846ms total)
T3AC0 031:511 JLINK_WriteReg(R9, 0x20000160)  returns 0x00 (0000ms, 1846ms total)
T3AC0 031:511 JLINK_WriteReg(R10, 0x00000000)  returns 0x00 (0001ms, 1847ms total)
T3AC0 031:512 JLINK_WriteReg(R11, 0x00000000)  returns 0x00 (0000ms, 1847ms total)
T3AC0 031:512 JLINK_WriteReg(R12, 0x00000000)  returns 0x00 (0000ms, 1847ms total)
T3AC0 031:512 JLINK_WriteReg(R13, 0x20000800)  returns 0x00 (0000ms, 1847ms total)
T3AC0 031:513 JLINK_WriteReg(R14, 0x20000001)  returns 0x00 (0000ms, 1848ms total)
T3AC0 031:513 JLINK_WriteReg(R15, 0x20000038)  returns 0x00 (0000ms, 1848ms total)
T3AC0 031:513 JLINK_WriteReg(XPSR, 0x01000000)  returns 0x00 (0001ms, 1849ms total)
T3AC0 031:514 JLINK_WriteReg(MSP, 0x20000800)  returns 0x00 (0000ms, 1849ms total)
T3AC0 031:514 JLINK_WriteReg(PSP, 0x20000800)  returns 0x00 (0000ms, 1849ms total)
T3AC0 031:514 JLINK_WriteReg(CFBP, 0x00000000)  returns 0x00 (0001ms, 1850ms total)
T3AC0 031:515 JLINK_SetBPEx(Addr = 0x20000000, Type = 0xFFFFFFF2) -- CPU_ReadMem(2 bytes @ 0x20000000)  returns 0x00000001 (0004ms, 1854ms total)
T3AC0 031:519 JLINK_Go() -- CPU_WriteMem(2 bytes @ 0x20000000) -- CPU_WriteMem(4 bytes @ 0xE0002008) -- CPU_WriteMem(4 bytes @ 0xE000200C) -- CPU_WriteMem(4 bytes @ 0xE0002010) -- CPU_WriteMem(4 bytes @ 0xE0002014) -- CPU_WriteMem(4 bytes @ 0xE0002018) -- CPU_WriteMem(4 bytes @ 0xE000201C) (0049ms, 1903ms total)
T3AC0 031:569 JLINK_IsHalted() -- CPU_ReadMem(2 bytes @ 0x20000000)  returns TRUE (0018ms, 1922ms total)
T3AC0 031:587 JLINK_ReadReg(R15)  returns 0x20000000 (0000ms, 1904ms total)
T3AC0 031:587 JLINK_ClrBPEx(BPHandle = 0x00000001)  returns 0x00 (0001ms, 1905ms total)
T3AC0 031:588 JLINK_ReadReg(R0)  returns 0x00000000 (0000ms, 1905ms total)
T3AC0 031:589 JLINK_WriteReg(R0, 0x08000000)  returns 0x00 (0001ms, 1906ms total)
T3AC0 031:590 JLINK_WriteReg(R1, 0x00B71B00)  returns 0x00 (0000ms, 1906ms total)
T3AC0 031:590 JLINK_WriteReg(R2, 0x00000001)  returns 0x00 (0002ms, 1908ms total)
T3AC0 031:592 JLINK_WriteReg(R3, 0x00000000)  returns 0x00 (0002ms, 1910ms total)
T3AC0 031:595 JLINK_WriteReg(R4, 0x00000000)  returns 0x00 (0001ms, 1912ms total)
T3AC0 031:596 JLINK_WriteReg(R5, 0x00000000)  returns 0x00 (0001ms, 1913ms total)
T3AC0 031:597 JLINK_WriteReg(R6, 0x00000000)  returns 0x00 (0000ms, 1913ms total)
T3AC0 031:597 JLINK_WriteReg(R7, 0x00000000)  returns 0x00 (0001ms, 1914ms total)
T3AC0 031:598 JLINK_WriteReg(R8, 0x00000000)  returns 0x00 (0000ms, 1914ms total)
T3AC0 031:598 JLINK_WriteReg(R9, 0x20000160)  returns 0x00 (0001ms, 1915ms total)
T3AC0 031:599 JLINK_WriteReg(R10, 0x00000000)  returns 0x00 (0000ms, 1915ms total)
T3AC0 031:599 JLINK_WriteReg(R11, 0x00000000)  returns 0x00 (0000ms, 1915ms total)
T3AC0 031:599 JLINK_WriteReg(R12, 0x00000000)  returns 0x00 (0001ms, 1916ms total)
T3AC0 031:600 JLINK_WriteReg(R13, 0x20000800)  returns 0x00 (0000ms, 1916ms total)
T3AC0 031:601 JLINK_WriteReg(R14, 0x20000001)  returns 0x00 (0001ms, 1918ms total)
T3AC0 031:603 JLINK_WriteReg(R15, 0x2000007C)  returns 0x00 (0002ms, 1921ms total)
T3AC0 031:605 JLINK_WriteReg(XPSR, 0x01000000)  returns 0x00 (0010ms, 1931ms total)
T3AC0 031:618 JLINK_WriteReg(MSP, 0x20000800)  returns 0x00 (0000ms, 1934ms total)
T3AC0 031:620 JLINK_WriteReg(PSP, 0x20000800)  returns 0x00 (0001ms, 1937ms total)
T3AC0 031:621 JLINK_WriteReg(CFBP, 0x00000000)  returns 0x00 (0000ms, 1937ms total)
T3AC0 031:621 JLINK_SetBPEx(Addr = 0x20000000, Type = 0xFFFFFFF2)  returns 0x00000002 (0000ms, 1937ms total)
T3AC0 031:621 JLINK_Go() (0010ms, 1947ms total)
T3AC0 031:632 JLINK_IsHalted()  returns FALSE (0007ms, 1955ms total)
T3AC0 031:731 JLINK_IsHalted() -- CPU_ReadMem(2 bytes @ 0x20000000)  returns TRUE (0027ms, 1975ms total)
T3AC0 031:758 JLINK_ReadReg(R15)  returns 0x20000000 (0000ms, 1948ms total)
T3AC0 031:758 JLINK_ClrBPEx(BPHandle = 0x00000002)  returns 0x00 (0000ms, 1948ms total)
T3AC0 031:758 JLINK_ReadReg(R0)  returns 0x00000000 (0001ms, 1949ms total)
T3AC0 031:812 JLINK_WriteReg(R0, 0x00000001)  returns 0x00 (0001ms, 1950ms total)
T3AC0 031:814 JLINK_WriteReg(R1, 0x00B71B00)  returns 0x00 (0002ms, 1952ms total)
T3AC0 031:816 JLINK_WriteReg(R2, 0x00000001)  returns 0x00 (0000ms, 1952ms total)
T3AC0 031:816 JLINK_WriteReg(R3, 0x00000000)  returns 0x00 (0001ms, 1953ms total)
T3AC0 031:817 JLINK_WriteReg(R4, 0x00000000)  returns 0x00 (0000ms, 1953ms total)
T3AC0 031:817 JLINK_WriteReg(R5, 0x00000000)  returns 0x00 (0000ms, 1953ms total)
T3AC0 031:817 JLINK_WriteReg(R6, 0x00000000)  returns 0x00 (0001ms, 1954ms total)
T3AC0 031:818 JLINK_WriteReg(R7, 0x00000000)  returns 0x00 (0000ms, 1954ms total)
T3AC0 031:818 JLINK_WriteReg(R8, 0x00000000)  returns 0x00 (0001ms, 1955ms total)
T3AC0 031:819 JLINK_WriteReg(R9, 0x20000160)  returns 0x00 (0000ms, 1955ms total)
T3AC0 031:819 JLINK_WriteReg(R10, 0x00000000)  returns 0x00 (0000ms, 1955ms total)
T3AC0 031:819 JLINK_WriteReg(R11, 0x00000000)  returns 0x00 (0001ms, 1956ms total)
T3AC0 031:820 JLINK_WriteReg(R12, 0x00000000)  returns 0x00 (0000ms, 1956ms total)
T3AC0 031:820 JLINK_WriteReg(R13, 0x20000800)  returns 0x00 (0001ms, 1957ms total)
T3AC0 031:821 JLINK_WriteReg(R14, 0x20000001)  returns 0x00 (0000ms, 1957ms total)
T3AC0 031:821 JLINK_WriteReg(R15, 0x2000006A)  returns 0x00 (0000ms, 1957ms total)
T3AC0 031:821 JLINK_WriteReg(XPSR, 0x01000000)  returns 0x00 (0001ms, 1958ms total)
T3AC0 031:822 JLINK_WriteReg(MSP, 0x20000800)  returns 0x00 (0000ms, 1958ms total)
T3AC0 031:822 JLINK_WriteReg(PSP, 0x20000800)  returns 0x00 (0000ms, 1958ms total)
T3AC0 031:822 JLINK_WriteReg(CFBP, 0x00000000)  returns 0x00 (0000ms, 1958ms total)
T3AC0 031:822 JLINK_SetBPEx(Addr = 0x20000000, Type = 0xFFFFFFF2)  returns 0x00000003 (0001ms, 1959ms total)
T3AC0 031:823 JLINK_Go() (0009ms, 1968ms total)
T3AC0 031:832 JLINK_IsHalted() -- CPU_ReadMem(2 bytes @ 0x20000000)  returns TRUE (0017ms, 1985ms total)
T3AC0 031:849 JLINK_ReadReg(R15)  returns 0x20000000 (0001ms, 1969ms total)
T3AC0 031:850 JLINK_ClrBPEx(BPHandle = 0x00000003)  returns 0x00 (0000ms, 1969ms total)
T3AC0 031:850 JLINK_ReadReg(R0)  returns 0x00000000 (0000ms, 1969ms total)
T3AC0 031:862 JLINK_WriteMem(0x20000000, 0x0164 Bytes, ...) -- Data:  00 BE 0A E0 0D 78 2D 06 68 40 08 24 40 00 00 D3 ... -- CPU_WriteMem(356 bytes @ 0x20000000)  returns 0x164 (0009ms, 1979ms total)
T3AC0 031:872 JLINK_WriteReg(R0, 0x08000000)  returns 0x00 (0001ms, 1980ms total)
T3AC0 031:873 JLINK_WriteReg(R1, 0x00B71B00)  returns 0x00 (0001ms, 1981ms total)
T3AC0 031:874 JLINK_WriteReg(R2, 0x00000002)  returns 0x00 (0001ms, 1982ms total)
T3AC0 031:875 JLINK_WriteReg(R3, 0x00000000)  returns 0x00 (0000ms, 1982ms total)
T3AC0 031:876 JLINK_WriteReg(R4, 0x00000000)  returns 0x00 (0000ms, 1982ms total)
T3AC0 031:876 JLINK_WriteReg(R5, 0x00000000)  returns 0x00 (0001ms, 1983ms total)
T3AC0 031:877 JLINK_WriteReg(R6, 0x00000000)  returns 0x00 (0000ms, 1983ms total)
T3AC0 031:877 JLINK_WriteReg(R7, 0x00000000)  returns 0x00 (0000ms, 1983ms total)
T3AC0 031:877 JLINK_WriteReg(R8, 0x00000000)  returns 0x00 (0001ms, 1984ms total)
T3AC0 031:878 JLINK_WriteReg(R9, 0x20000160)  returns 0x00 (0000ms, 1984ms total)
T3AC0 031:878 JLINK_WriteReg(R10, 0x00000000)  returns 0x00 (0000ms, 1984ms total)
T3AC0 031:878 JLINK_WriteReg(R11, 0x00000000)  returns 0x00 (0001ms, 1985ms total)
T3AC0 031:879 JLINK_WriteReg(R12, 0x00000000)  returns 0x00 (0000ms, 1985ms total)
T3AC0 031:879 JLINK_WriteReg(R13, 0x20000800)  returns 0x00 (0000ms, 1985ms total)
T3AC0 031:879 JLINK_WriteReg(R14, 0x20000001)  returns 0x00 (0001ms, 1986ms total)
T3AC0 031:880 JLINK_WriteReg(R15, 0x20000038)  returns 0x00 (0000ms, 1986ms total)
T3AC0 031:880 JLINK_WriteReg(XPSR, 0x01000000)  returns 0x00 (0000ms, 1986ms total)
T3AC0 031:880 JLINK_WriteReg(MSP, 0x20000800)  returns 0x00 (0001ms, 1987ms total)
T3AC0 031:881 JLINK_WriteReg(PSP, 0x20000800)  returns 0x00 (0000ms, 1987ms total)
T3AC0 031:881 JLINK_WriteReg(CFBP, 0x00000000)  returns 0x00 (0000ms, 1987ms total)
T3AC0 031:882 JLINK_SetBPEx(Addr = 0x20000000, Type = 0xFFFFFFF2) -- CPU_ReadMem(2 bytes @ 0x20000000)  returns 0x00000004 (0004ms, 1992ms total)
T3AC0 031:886 JLINK_Go() -- CPU_WriteMem(2 bytes @ 0x20000000) (0013ms, 2005ms total)
T3AC0 031:900 JLINK_IsHalted() -- CPU_ReadMem(2 bytes @ 0x20000000)  returns TRUE (0018ms, 2024ms total)
T3AC0 031:918 JLINK_ReadReg(R15)  returns 0x20000000 (0000ms, 2006ms total)
T3AC0 031:918 JLINK_ClrBPEx(BPHandle = 0x00000004)  returns 0x00 (0000ms, 2006ms total)
T3AC0 031:918 JLINK_ReadReg(R0)  returns 0x00000000 (0001ms, 2007ms total)
T3AC0 031:924 JLINK_WriteMem(0x20000164, 0x029C Bytes, ...) -- Data:  38 D3 00 20 45 01 00 08 4D 01 00 08 4F 01 00 08 ... -- CPU_WriteMem(668 bytes @ 0x20000164)  returns 0x29C (0011ms, 2018ms total)
T3AC0 031:935 JLINK_WriteMem(0x20000400, 0x0164 Bytes, ...) -- Data:  7C BD 00 00 A8 94 00 20 04 F0 02 BC 04 F0 0C BC ... -- CPU_WriteMem(356 bytes @ 0x20000400)  returns 0x164 (0009ms, 2027ms total)
T3AC0 031:944 JLINK_WriteReg(R0, 0x08000000)  returns 0x00 (0001ms, 2028ms total)
T3AC0 031:945 JLINK_WriteReg(R1, 0x00000400)  returns 0x00 (0000ms, 2028ms total)
T3AC0 031:945 JLINK_WriteReg(R2, 0x20000164)  returns 0x00 (0001ms, 2029ms total)
T3AC0 031:946 JLINK_WriteReg(R3, 0x00000000)  returns 0x00 (0000ms, 2029ms total)
T3AC0 031:946 JLINK_WriteReg(R4, 0x00000000)  returns 0x00 (0001ms, 2030ms total)
T3AC0 031:947 JLINK_WriteReg(R5, 0x00000000)  returns 0x00 (0000ms, 2030ms total)
T3AC0 031:947 JLINK_WriteReg(R6, 0x00000000)  returns 0x00 (0000ms, 2030ms total)
T3AC0 031:947 JLINK_WriteReg(R7, 0x00000000)  returns 0x00 (0001ms, 2031ms total)
T3AC0 031:948 JLINK_WriteReg(R8, 0x00000000)  returns 0x00 (0000ms, 2031ms total)
T3AC0 031:948 JLINK_WriteReg(R9, 0x20000160)  returns 0x00 (0000ms, 2031ms total)
T3AC0 031:948 JLINK_WriteReg(R10, 0x00000000)  returns 0x00 (0001ms, 2032ms total)
T3AC0 031:949 JLINK_WriteReg(R11, 0x00000000)  returns 0x00 (0000ms, 2032ms total)
T3AC0 031:949 JLINK_WriteReg(R12, 0x00000000)  returns 0x00 (0000ms, 2032ms total)
T3AC0 031:949 JLINK_WriteReg(R13, 0x20000800)  returns 0x00 (0001ms, 2033ms total)
T3AC0 031:950 JLINK_WriteReg(R14, 0x20000001)  returns 0x00 (0000ms, 2033ms total)
T3AC0 031:950 JLINK_WriteReg(R15, 0x200000F4)  returns 0x00 (0000ms, 2033ms total)
T3AC0 031:951 JLINK_WriteReg(XPSR, 0x01000000)  returns 0x00 (0000ms, 2034ms total)
T3AC0 031:951 JLINK_WriteReg(MSP, 0x20000800)  returns 0x00 (0000ms, 2034ms total)
T3AC0 031:951 JLINK_WriteReg(PSP, 0x20000800)  returns 0x00 (0001ms, 2035ms total)
T3AC0 031:952 JLINK_WriteReg(CFBP, 0x00000000)  returns 0x00 (0000ms, 2035ms total)
T3AC0 031:952 JLINK_SetBPEx(Addr = 0x20000000, Type = 0xFFFFFFF2)  returns 0x00000005 (0001ms, 2036ms total)
T3AC0 031:953 JLINK_Go() (0008ms, 2044ms total)
T3AC0 031:961 JLINK_IsHalted()  returns FALSE (0005ms, 2049ms total)
T3AC0 031:980 JLINK_IsHalted()  returns FALSE (0004ms, 2048ms total)
T3AC0 031:986 JLINK_IsHalted()  returns FALSE (0004ms, 2048ms total)
T3AC0 031:994 JLINK_IsHalted() -- CPU_ReadMem(2 bytes @ 0x20000000)  returns TRUE (0019ms, 2063ms total)
T3AC0 032:013 JLINK_ReadReg(R15)  returns 0x20000000 (0000ms, 2044ms total)
T3AC0 032:013 JLINK_ClrBPEx(BPHandle = 0x00000005)  returns 0x00 (0001ms, 2045ms total)
T3AC0 032:014 JLINK_ReadReg(R0)  returns 0x00000000 (0000ms, 2045ms total)
T3AC0 032:015 JLINK_WriteMem(0x20000164, 0x029C Bytes, ...) -- Data:  40 13 C3 EB 40 20 6B 68 9A 1A 90 FB F2 F3 AA 68 ... -- CPU_WriteMem(668 bytes @ 0x20000164)  returns 0x29C (0010ms, 2055ms total)
T3AC0 032:025 JLINK_WriteMem(0x20000400, 0x0164 Bytes, ...) -- Data:  04 EB 40 00 00 22 B0 F9 4A 00 11 46 04 F0 75 FA ... -- CPU_WriteMem(356 bytes @ 0x20000400)  returns 0x164 (0006ms, 2061ms total)
T3AC0 032:031 JLINK_WriteReg(R0, 0x08000400)  returns 0x00 (0001ms, 2062ms total)
T3AC0 032:032 JLINK_WriteReg(R1, 0x00000400)  returns 0x00 (0000ms, 2062ms total)
T3AC0 032:032 JLINK_WriteReg(R2, 0x20000164)  returns 0x00 (0001ms, 2063ms total)
T3AC0 032:033 JLINK_WriteReg(R3, 0x00000000)  returns 0x00 (0001ms, 2064ms total)
T3AC0 032:034 JLINK_WriteReg(R4, 0x00000000)  returns 0x00 (0001ms, 2065ms total)
T3AC0 032:035 JLINK_WriteReg(R5, 0x00000000)  returns 0x00 (0001ms, 2066ms total)
T3AC0 032:036 JLINK_WriteReg(R6, 0x00000000)  returns 0x00 (0000ms, 2066ms total)
T3AC0 032:036 JLINK_WriteReg(R7, 0x00000000)  returns 0x00 (0001ms, 2067ms total)
T3AC0 032:037 JLINK_WriteReg(R8, 0x00000000)  returns 0x00 (0001ms, 2068ms total)
T3AC0 032:038 JLINK_WriteReg(R9, 0x20000160)  returns 0x00 (0001ms, 2069ms total)
T3AC0 032:039 JLINK_WriteReg(R10, 0x00000000)  returns 0x00 (0001ms, 2070ms total)
T3AC0 032:040 JLINK_WriteReg(R11, 0x00000000)  returns 0x00 (0000ms, 2070ms total)
T3AC0 032:040 JLINK_WriteReg(R12, 0x00000000)  returns 0x00 (0001ms, 2071ms total)
T3AC0 032:041 JLINK_WriteReg(R13, 0x20000800)  returns 0x00 (0000ms, 2071ms total)
T3AC0 032:041 JLINK_WriteReg(R14, 0x20000001)  returns 0x00 (0001ms, 2072ms total)
T3AC0 032:042 JLINK_WriteReg(R15, 0x200000F4)  returns 0x00 (0001ms, 2073ms total)
T3AC0 032:043 JLINK_WriteReg(XPSR, 0x01000000)  returns 0x00 (0000ms, 2073ms total)
T3AC0 032:043 JLINK_WriteReg(MSP, 0x20000800)  returns 0x00 (0001ms, 2074ms total)
T3AC0 032:044 JLINK_WriteReg(PSP, 0x20000800)  returns 0x00 (0001ms, 2075ms total)
T3AC0 032:045 JLINK_WriteReg(CFBP, 0x00000000)  returns 0x00 (0000ms, 2075ms total)
T3AC0 032:046 JLINK_SetBPEx(Addr = 0x20000000, Type = 0xFFFFFFF2)  returns 0x00000006 (0000ms, 2076ms total)
T3AC0 032:046 JLINK_Go() (0010ms, 2086ms total)
T3AC0 032:056 JLINK_IsHalted()  returns FALSE (0006ms, 2092ms total)
T3AC0 032:064 JLINK_IsHalted()  returns FALSE (0004ms, 2090ms total)
T3AC0 032:070 JLINK_IsHalted()  returns FALSE (0006ms, 2092ms total)
T3AC0 032:078 JLINK_IsHalted()  returns FALSE (0004ms, 2090ms total)
T3AC0 032:084 JLINK_IsHalted() -- CPU_ReadMem(2 bytes @ 0x20000000)  returns TRUE (0018ms, 2104ms total)
T3AC0 032:102 JLINK_ReadReg(R15)  returns 0x20000000 (0000ms, 2086ms total)
T3AC0 032:102 JLINK_ClrBPEx(BPHandle = 0x00000006)  returns 0x00 (0003ms, 2089ms total)
T3AC0 032:105 JLINK_ReadReg(R0)  returns 0x00000000 (0001ms, 2090ms total)
T3AC0 032:109 JLINK_WriteMem(0x20000164, 0x029C Bytes, ...) -- Data:  0D 46 04 00 07 D0 03 F0 30 FE 05 64 20 46 BD E8 ... -- CPU_WriteMem(668 bytes @ 0x20000164)  returns 0x29C (0012ms, 2102ms total)
T3AC0 032:121 JLINK_WriteMem(0x20000400, 0x0164 Bytes, ...) -- Data:  26 00 80 06 01 D5 B5 F9 44 90 28 46 FF F7 D7 FF ... -- CPU_WriteMem(356 bytes @ 0x20000400)  returns 0x164 (0008ms, 2110ms total)
T3AC0 032:129 JLINK_WriteReg(R0, 0x08000800)  returns 0x00 (0000ms, 2110ms total)
T3AC0 032:129 JLINK_WriteReg(R1, 0x00000400)  returns 0x00 (0001ms, 2111ms total)
T3AC0 032:130 JLINK_WriteReg(R2, 0x20000164)  returns 0x00 (0001ms, 2112ms total)
T3AC0 032:131 JLINK_WriteReg(R3, 0x00000000)  returns 0x00 (0000ms, 2112ms total)
T3AC0 032:131 JLINK_WriteReg(R4, 0x00000000)  returns 0x00 (0001ms, 2113ms total)
T3AC0 032:132 JLINK_WriteReg(R5, 0x00000000)  returns 0x00 (0000ms, 2113ms total)
T3AC0 032:132 JLINK_WriteReg(R6, 0x00000000)  returns 0x00 (0001ms, 2114ms total)
T3AC0 032:133 JLINK_WriteReg(R7, 0x00000000)  returns 0x00 (0001ms, 2115ms total)
T3AC0 032:134 JLINK_WriteReg(R8, 0x00000000)  returns 0x00 (0001ms, 2116ms total)
T3AC0 032:135 JLINK_WriteReg(R9, 0x20000160)  returns 0x00 (0001ms, 2117ms total)
T3AC0 032:136 JLINK_WriteReg(R10, 0x00000000)  returns 0x00 (0001ms, 2118ms total)
T3AC0 032:137 JLINK_WriteReg(R11, 0x00000000)  returns 0x00 (0015ms, 2133ms total)
T3AC0 032:157 JLINK_WriteReg(R12, 0x00000000)  returns 0x00 (0004ms, 2142ms total)
T3AC0 032:161 JLINK_WriteReg(R13, 0x20000800)  returns 0x00 (0001ms, 2143ms total)
T3AC0 032:162 JLINK_WriteReg(R14, 0x20000001)  returns 0x00 (0001ms, 2144ms total)
T3AC0 032:163 JLINK_WriteReg(R15, 0x200000F4)  returns 0x00 (0001ms, 2145ms total)
T3AC0 032:164 JLINK_WriteReg(XPSR, 0x01000000)  returns 0x00 (0000ms, 2145ms total)
T3AC0 032:165 JLINK_WriteReg(MSP, 0x20000800)  returns 0x00 (0000ms, 2146ms total)
T3AC0 032:165 JLINK_WriteReg(PSP, 0x20000800)  returns 0x00 (0001ms, 2147ms total)
T3AC0 032:166 JLINK_WriteReg(CFBP, 0x00000000)  returns 0x00 (0000ms, 2147ms total)
T3AC0 032:166 JLINK_SetBPEx(Addr = 0x20000000, Type = 0xFFFFFFF2)  returns 0x00000007 (0001ms, 2148ms total)
T3AC0 032:168 JLINK_Go() (0008ms, 2156ms total)
T3AC0 032:176 JLINK_IsHalted()  returns FALSE (0008ms, 2164ms total)
T3AC0 032:192 JLINK_IsHalted()  returns FALSE (0005ms, 2161ms total)
T3AC0 032:200 JLINK_IsHalted()  returns FALSE (0007ms, 2163ms total)
T3AC0 032:210 JLINK_IsHalted() -- CPU_ReadMem(2 bytes @ 0x20000000)  returns TRUE (0016ms, 2172ms total)
T3AC0 032:227 JLINK_ReadReg(R15)  returns 0x20000000 (0001ms, 2157ms total)
T3AC0 032:228 JLINK_ClrBPEx(BPHandle = 0x00000007)  returns 0x00 (0000ms, 2157ms total)
T3AC0 032:229 JLINK_ReadReg(R0)  returns 0x00000000 (0000ms, 2158ms total)
T3AC0 032:230 JLINK_WriteMem(0x20000164, 0x029C Bytes, ...) -- Data:  FE 48 03 F0 5F FF 00 21 A8 F1 01 03 6A 1E 08 46 ... -- CPU_WriteMem(668 bytes @ 0x20000164)  returns 0x29C (0010ms, 2168ms total)
T3AC0 032:241 JLINK_WriteMem(0x20000400, 0x0164 Bytes, ...) -- Data:  A0 60 EA E7 03 B0 21 46 40 46 BD E8 F0 43 04 F0 ... -- CPU_WriteMem(356 bytes @ 0x20000400)  returns 0x164 (0009ms, 2178ms total)
T3AC0 032:250 JLINK_WriteReg(R0, 0x08000C00)  returns 0x00 (0001ms, 2179ms total)
T3AC0 032:251 JLINK_WriteReg(R1, 0x00000400)  returns 0x00 (0000ms, 2179ms total)
T3AC0 032:251 JLINK_WriteReg(R2, 0x20000164)  returns 0x00 (0001ms, 2180ms total)
T3AC0 032:252 JLINK_WriteReg(R3, 0x00000000)  returns 0x00 (0001ms, 2181ms total)
T3AC0 032:253 JLINK_WriteReg(R4, 0x00000000)  returns 0x00 (0000ms, 2181ms total)
T3AC0 032:253 JLINK_WriteReg(R5, 0x00000000)  returns 0x00 (0001ms, 2182ms total)
T3AC0 032:254 JLINK_WriteReg(R6, 0x00000000)  returns 0x00 (0000ms, 2182ms total)
T3AC0 032:254 JLINK_WriteReg(R7, 0x00000000)  returns 0x00 (0001ms, 2183ms total)
T3AC0 032:255 JLINK_WriteReg(R8, 0x00000000)  returns 0x00 (0000ms, 2183ms total)
T3AC0 032:255 JLINK_WriteReg(R9, 0x20000160)  returns 0x00 (0001ms, 2184ms total)
T3AC0 032:256 JLINK_WriteReg(R10, 0x00000000)  returns 0x00 (0001ms, 2185ms total)
T3AC0 032:257 JLINK_WriteReg(R11, 0x00000000)  returns 0x00 (0000ms, 2185ms total)
T3AC0 032:257 JLINK_WriteReg(R12, 0x00000000)  returns 0x00 (0001ms, 2186ms total)
T3AC0 032:258 JLINK_WriteReg(R13, 0x20000800)  returns 0x00 (0001ms, 2187ms total)
T3AC0 032:259 JLINK_WriteReg(R14, 0x20000001)  returns 0x00 (0000ms, 2187ms total)
T3AC0 032:259 JLINK_WriteReg(R15, 0x200000F4)  returns 0x00 (0001ms, 2188ms total)
T3AC0 032:260 JLINK_WriteReg(XPSR, 0x01000000)  returns 0x00 (0001ms, 2189ms total)
T3AC0 032:261 JLINK_WriteReg(MSP, 0x20000800)  returns 0x00 (0001ms, 2190ms total)
T3AC0 032:262 JLINK_WriteReg(PSP, 0x20000800)  returns 0x00 (0000ms, 2190ms total)
T3AC0 032:262 JLINK_WriteReg(CFBP, 0x00000000)  returns 0x00 (0001ms, 2191ms total)
T3AC0 032:263 JLINK_SetBPEx(Addr = 0x20000000, Type = 0xFFFFFFF2)  returns 0x00000008 (0001ms, 2192ms total)
T3AC0 032:264 JLINK_Go() (0009ms, 2201ms total)
T3AC0 032:273 JLINK_IsHalted()  returns FALSE (0004ms, 2205ms total)
T3AC0 032:282 JLINK_IsHalted()  returns FALSE (0006ms, 2207ms total)
T3AC0 032:290 JLINK_IsHalted()  returns FALSE (0004ms, 2205ms total)
T3AC0 032:296 JLINK_IsHalted()  returns FALSE (0007ms, 2208ms total)
T3AC0 032:305 JLINK_IsHalted() -- CPU_ReadMem(2 bytes @ 0x20000000)  returns TRUE (0017ms, 2218ms total)
T3AC0 032:322 JLINK_ReadReg(R15)  returns 0x20000000 (0000ms, 2201ms total)
T3AC0 032:323 JLINK_ClrBPEx(BPHandle = 0x00000008)  returns 0x00 (0000ms, 2202ms total)
T3AC0 032:323 JLINK_ReadReg(R0)  returns 0x00000000 (0001ms, 2203ms total)
T3AC0 032:324 JLINK_WriteMem(0x20000164, 0x029C Bytes, ...) -- Data:  D4 06 00 20 79 0C 00 08 0F 0E 00 08 BD F9 18 20 ... -- CPU_WriteMem(668 bytes @ 0x20000164)  returns 0x29C (0010ms, 2213ms total)
T3AC0 032:335 JLINK_WriteMem(0x20000400, 0x0164 Bytes, ...) -- Data:  07 46 A0 B2 A1 42 18 D0 08 D2 B5 F8 50 20 A5 F8 ... -- CPU_WriteMem(356 bytes @ 0x20000400)  returns 0x164 (0007ms, 2221ms total)
T3AC0 032:343 JLINK_WriteReg(R0, 0x08001000)  returns 0x00 (0000ms, 2221ms total)
T3AC0 032:343 JLINK_WriteReg(R1, 0x00000400)  returns 0x00 (0001ms, 2222ms total)
T3AC0 032:344 JLINK_WriteReg(R2, 0x20000164)  returns 0x00 (0000ms, 2222ms total)
T3AC0 032:344 JLINK_WriteReg(R3, 0x00000000)  returns 0x00 (0001ms, 2223ms total)
T3AC0 032:345 JLINK_WriteReg(R4, 0x00000000)  returns 0x00 (0000ms, 2223ms total)
T3AC0 032:345 JLINK_WriteReg(R5, 0x00000000)  returns 0x00 (0000ms, 2223ms total)
T3AC0 032:345 JLINK_WriteReg(R6, 0x00000000)  returns 0x00 (0003ms, 2226ms total)
T3AC0 032:348 JLINK_WriteReg(R7, 0x00000000)  returns 0x00 (0000ms, 2226ms total)
T3AC0 032:348 JLINK_WriteReg(R8, 0x00000000)  returns 0x00 (0001ms, 2227ms total)
T3AC0 032:349 JLINK_WriteReg(R9, 0x20000160)  returns 0x00 (0000ms, 2227ms total)
T3AC0 032:350 JLINK_WriteReg(R10, 0x00000000)  returns 0x00 (0000ms, 2228ms total)
T3AC0 032:350 JLINK_WriteReg(R11, 0x00000000)  returns 0x00 (0000ms, 2228ms total)
T3AC0 032:350 JLINK_WriteReg(R12, 0x00000000)  returns 0x00 (0001ms, 2229ms total)
T3AC0 032:351 JLINK_WriteReg(R13, 0x20000800)  returns 0x00 (0002ms, 2231ms total)
T3AC0 032:353 JLINK_WriteReg(R14, 0x20000001)  returns 0x00 (0000ms, 2231ms total)
T3AC0 032:353 JLINK_WriteReg(R15, 0x200000F4)  returns 0x00 (0001ms, 2232ms total)
T3AC0 032:354 JLINK_WriteReg(XPSR, 0x01000000)  returns 0x00 (0000ms, 2232ms total)
T3AC0 032:354 JLINK_WriteReg(MSP, 0x20000800)  returns 0x00 (0001ms, 2233ms total)
T3AC0 032:355 JLINK_WriteReg(PSP, 0x20000800)  returns 0x00 (0000ms, 2233ms total)
T3AC0 032:355 JLINK_WriteReg(CFBP, 0x00000000)  returns 0x00 (0001ms, 2234ms total)
T3AC0 032:356 JLINK_SetBPEx(Addr = 0x20000000, Type = 0xFFFFFFF2)  returns 0x00000009 (0001ms, 2235ms total)
T3AC0 032:357 JLINK_Go() (0009ms, 2244ms total)
T3AC0 032:367 JLINK_IsHalted()  returns FALSE (0005ms, 2250ms total)
T3AC0 032:375 JLINK_IsHalted()  returns FALSE (0003ms, 2248ms total)
T3AC0 032:380 JLINK_IsHalted()  returns FALSE (0005ms, 2250ms total)
T3AC0 032:389 JLINK_IsHalted()  returns FALSE (0005ms, 2250ms total)
T3AC0 032:396 JLINK_IsHalted() -- CPU_ReadMem(2 bytes @ 0x20000000)  returns TRUE (0020ms, 2265ms total)
T3AC0 032:416 JLINK_ReadReg(R15)  returns 0x20000000 (0001ms, 2246ms total)
T3AC0 032:417 JLINK_ClrBPEx(BPHandle = 0x00000009)  returns 0x00 (0000ms, 2246ms total)
T3AC0 032:418 JLINK_ReadReg(R0)  returns 0x00000000 (0000ms, 2246ms total)
T3AC0 032:419 JLINK_WriteMem(0x20000164, 0x029C Bytes, ...) -- Data:  28 46 01 F0 18 F8 7C BD 2D E9 F0 47 81 46 91 F8 ... -- CPU_WriteMem(668 bytes @ 0x20000164)  returns 0x29C (0011ms, 2257ms total)
T3AC0 032:430 JLINK_WriteMem(0x20000400, 0x0164 Bytes, ...) -- Data:  01 AB 28 46 FF F7 96 FF B4 F8 48 10 81 42 11 D0 ... -- CPU_WriteMem(356 bytes @ 0x20000400)  returns 0x164 (0008ms, 2265ms total)
T3AC0 032:438 JLINK_WriteReg(R0, 0x08001400)  returns 0x00 (0001ms, 2266ms total)
T3AC0 032:439 JLINK_WriteReg(R1, 0x00000400)  returns 0x00 (0001ms, 2267ms total)
T3AC0 032:440 JLINK_WriteReg(R2, 0x20000164)  returns 0x00 (0000ms, 2267ms total)
T3AC0 032:440 JLINK_WriteReg(R3, 0x00000000)  returns 0x00 (0002ms, 2269ms total)
T3AC0 032:442 JLINK_WriteReg(R4, 0x00000000)  returns 0x00 (0000ms, 2269ms total)
T3AC0 032:442 JLINK_WriteReg(R5, 0x00000000)  returns 0x00 (0001ms, 2270ms total)
T3AC0 032:443 JLINK_WriteReg(R6, 0x00000000)  returns 0x00 (0000ms, 2270ms total)
T3AC0 032:443 JLINK_WriteReg(R7, 0x00000000)  returns 0x00 (0001ms, 2271ms total)
T3AC0 032:444 JLINK_WriteReg(R8, 0x00000000)  returns 0x00 (0000ms, 2271ms total)
T3AC0 032:444 JLINK_WriteReg(R9, 0x20000160)  returns 0x00 (0001ms, 2272ms total)
T3AC0 032:445 JLINK_WriteReg(R10, 0x00000000)  returns 0x00 (0001ms, 2273ms total)
T3AC0 032:446 JLINK_WriteReg(R11, 0x00000000)  returns 0x00 (0000ms, 2273ms total)
T3AC0 032:446 JLINK_WriteReg(R12, 0x00000000)  returns 0x00 (0001ms, 2274ms total)
T3AC0 032:447 JLINK_WriteReg(R13, 0x20000800)  returns 0x00 (0000ms, 2274ms total)
T3AC0 032:447 JLINK_WriteReg(R14, 0x20000001)  returns 0x00 (0001ms, 2275ms total)
T3AC0 032:448 JLINK_WriteReg(R15, 0x200000F4)  returns 0x00 (0000ms, 2275ms total)
T3AC0 032:449 JLINK_WriteReg(XPSR, 0x01000000)  returns 0x00 (0000ms, 2276ms total)
T3AC0 032:449 JLINK_WriteReg(MSP, 0x20000800)  returns 0x00 (0001ms, 2277ms total)
T3AC0 032:450 JLINK_WriteReg(PSP, 0x20000800)  returns 0x00 (0000ms, 2277ms total)
T3AC0 032:450 JLINK_WriteReg(CFBP, 0x00000000)  returns 0x00 (0001ms, 2278ms total)
T3AC0 032:451 JLINK_SetBPEx(Addr = 0x20000000, Type = 0xFFFFFFF2)  returns 0x0000000A (0000ms, 2278ms total)
T3AC0 032:452 JLINK_Go() (0009ms, 2288ms total)
T3AC0 032:461 JLINK_IsHalted()  returns FALSE (0005ms, 2293ms total)
T3AC0 032:471 JLINK_IsHalted()  returns FALSE (0006ms, 2294ms total)
T3AC0 032:479 JLINK_IsHalted()  returns FALSE (0004ms, 2292ms total)
T3AC0 032:485 JLINK_IsHalted()  returns FALSE (0006ms, 2294ms total)
T3AC0 032:493 JLINK_IsHalted() -- CPU_ReadMem(2 bytes @ 0x20000000)  returns TRUE (0019ms, 2307ms total)
T3AC0 032:512 JLINK_ReadReg(R15)  returns 0x20000000 (0000ms, 2288ms total)
T3AC0 032:513 JLINK_ClrBPEx(BPHandle = 0x0000000A)  returns 0x00 (0000ms, 2289ms total)
T3AC0 032:517 JLINK_ReadReg(R0)  returns 0x00000000 (0003ms, 2296ms total)
T3AC0 032:521 JLINK_WriteMem(0x20000164, 0x029C Bytes, ...) -- Data:  00 93 FF F7 8C FF 7C BD 2D E9 F8 43 80 46 B1 F9 ... -- CPU_WriteMem(668 bytes @ 0x20000164)  returns 0x29C (0010ms, 2306ms total)
T3AC0 032:531 JLINK_WriteMem(0x20000400, 0x0164 Bytes, ...) -- Data:  E6 FC 07 46 05 98 AD F8 00 00 08 98 AD F8 02 00 ... -- CPU_WriteMem(356 bytes @ 0x20000400)  returns 0x164 (0013ms, 2319ms total)
T3AC0 032:544 JLINK_WriteReg(R0, 0x08001800)  returns 0x00 (0002ms, 2321ms total)
T3AC0 032:546 JLINK_WriteReg(R1, 0x00000400)  returns 0x00 (0000ms, 2321ms total)
T3AC0 032:547 JLINK_WriteReg(R2, 0x20000164)  returns 0x00 (0001ms, 2323ms total)
T3AC0 032:548 JLINK_WriteReg(R3, 0x00000000)  returns 0x00 (0001ms, 2324ms total)
T3AC0 032:549 JLINK_WriteReg(R4, 0x00000000)  returns 0x00 (0006ms, 2330ms total)
T3AC0 032:556 JLINK_WriteReg(R5, 0x00000000)  returns 0x00 (0000ms, 2331ms total)
T3AC0 032:556 JLINK_WriteReg(R6, 0x00000000)  returns 0x00 (0000ms, 2331ms total)
T3AC0 032:556 JLINK_WriteReg(R7, 0x00000000)  returns 0x00 (0001ms, 2332ms total)
T3AC0 032:557 JLINK_WriteReg(R8, 0x00000000)  returns 0x00 (0001ms, 2333ms total)
T3AC0 032:558 JLINK_WriteReg(R9, 0x20000160)  returns 0x00 (0001ms, 2334ms total)
T3AC0 032:559 JLINK_WriteReg(R10, 0x00000000)  returns 0x00 (0000ms, 2334ms total)
T3AC0 032:559 JLINK_WriteReg(R11, 0x00000000)  returns 0x00 (0001ms, 2335ms total)
T3AC0 032:560 JLINK_WriteReg(R12, 0x00000000)  returns 0x00 (0000ms, 2335ms total)
T3AC0 032:560 JLINK_WriteReg(R13, 0x20000800)  returns 0x00 (0001ms, 2336ms total)
T3AC0 032:561 JLINK_WriteReg(R14, 0x20000001)  returns 0x00 (0001ms, 2337ms total)
T3AC0 032:562 JLINK_WriteReg(R15, 0x200000F4)  returns 0x00 (0000ms, 2337ms total)
T3AC0 032:562 JLINK_WriteReg(XPSR, 0x01000000)  returns 0x00 (0001ms, 2338ms total)
T3AC0 032:563 JLINK_WriteReg(MSP, 0x20000800)  returns 0x00 (0000ms, 2338ms total)
T3AC0 032:563 JLINK_WriteReg(PSP, 0x20000800)  returns 0x00 (0001ms, 2339ms total)
T3AC0 032:564 JLINK_WriteReg(CFBP, 0x00000000)  returns 0x00 (0000ms, 2339ms total)
T3AC0 032:564 JLINK_SetBPEx(Addr = 0x20000000, Type = 0xFFFFFFF2)  returns 0x0000000B (0001ms, 2340ms total)
T3AC0 032:565 JLINK_Go() (0011ms, 2351ms total)
T3AC0 032:576 JLINK_IsHalted()  returns FALSE (0005ms, 2356ms total)
T3AC0 032:584 JLINK_IsHalted()  returns FALSE (0004ms, 2355ms total)
T3AC0 032:590 JLINK_IsHalted()  returns FALSE (0006ms, 2357ms total)
T3AC0 032:598 JLINK_IsHalted()  returns FALSE (0006ms, 2357ms total)
T3AC0 032:605 JLINK_IsHalted() -- CPU_ReadMem(2 bytes @ 0x20000000)  returns TRUE (0016ms, 2367ms total)
T3AC0 032:621 JLINK_ReadReg(R15)  returns 0x20000000 (0001ms, 2352ms total)
T3AC0 032:622 JLINK_ClrBPEx(BPHandle = 0x0000000B)  returns 0x00 (0001ms, 2353ms total)
T3AC0 032:623 JLINK_ReadReg(R0)  returns 0x00000000 (0001ms, 2354ms total)
T3AC0 032:625 JLINK_WriteMem(0x20000164, 0x029C Bytes, ...) -- Data:  57 4E 01 46 6B 46 01 AA 38 46 FF F7 9D FB 20 6F ... -- CPU_WriteMem(668 bytes @ 0x20000164)  returns 0x29C (0011ms, 2365ms total)
T3AC0 032:636 JLINK_WriteMem(0x20000400, 0x0164 Bytes, ...) -- Data:  50 D0 00 26 35 46 B0 46 37 46 50 46 02 F0 DF FA ... -- CPU_WriteMem(356 bytes @ 0x20000400)  returns 0x164 (0007ms, 2372ms total)
T3AC0 032:643 JLINK_WriteReg(R0, 0x08001C00)  returns 0x00 (0001ms, 2373ms total)
T3AC0 032:644 JLINK_WriteReg(R1, 0x00000400)  returns 0x00 (0000ms, 2373ms total)
T3AC0 032:644 JLINK_WriteReg(R2, 0x20000164)  returns 0x00 (0001ms, 2374ms total)
T3AC0 032:645 JLINK_WriteReg(R3, 0x00000000)  returns 0x00 (0000ms, 2374ms total)
T3AC0 032:645 JLINK_WriteReg(R4, 0x00000000)  returns 0x00 (0001ms, 2375ms total)
T3AC0 032:646 JLINK_WriteReg(R5, 0x00000000)  returns 0x00 (0000ms, 2375ms total)
T3AC0 032:646 JLINK_WriteReg(R6, 0x00000000)  returns 0x00 (0001ms, 2376ms total)
T3AC0 032:647 JLINK_WriteReg(R7, 0x00000000)  returns 0x00 (0000ms, 2376ms total)
T3AC0 032:648 JLINK_WriteReg(R8, 0x00000000)  returns 0x00 (0000ms, 2377ms total)
T3AC0 032:648 JLINK_WriteReg(R9, 0x20000160)  returns 0x00 (0001ms, 2378ms total)
T3AC0 032:649 JLINK_WriteReg(R10, 0x00000000)  returns 0x00 (0000ms, 2378ms total)
T3AC0 032:650 JLINK_WriteReg(R11, 0x00000000)  returns 0x00 (0001ms, 2380ms total)
T3AC0 032:651 JLINK_WriteReg(R12, 0x00000000)  returns 0x00 (0000ms, 2380ms total)
T3AC0 032:651 JLINK_WriteReg(R13, 0x20000800)  returns 0x00 (0001ms, 2381ms total)
T3AC0 032:652 JLINK_WriteReg(R14, 0x20000001)  returns 0x00 (0000ms, 2381ms total)
T3AC0 032:652 JLINK_WriteReg(R15, 0x200000F4)  returns 0x00 (0001ms, 2382ms total)
T3AC0 032:653 JLINK_WriteReg(XPSR, 0x01000000)  returns 0x00 (0000ms, 2382ms total)
T3AC0 032:653 JLINK_WriteReg(MSP, 0x20000800)  returns 0x00 (0001ms, 2383ms total)
T3AC0 032:654 JLINK_WriteReg(PSP, 0x20000800)  returns 0x00 (0000ms, 2383ms total)
T3AC0 032:654 JLINK_WriteReg(CFBP, 0x00000000)  returns 0x00 (0001ms, 2384ms total)
T3AC0 032:655 JLINK_SetBPEx(Addr = 0x20000000, Type = 0xFFFFFFF2)  returns 0x0000000C (0000ms, 2384ms total)
T3AC0 032:655 JLINK_Go() (0011ms, 2395ms total)
T3AC0 032:666 JLINK_IsHalted()  returns FALSE (0005ms, 2400ms total)
T3AC0 032:679 JLINK_IsHalted()  returns FALSE (0004ms, 2399ms total)
T3AC0 032:685 JLINK_IsHalted()  returns FALSE (0004ms, 2399ms total)
T3AC0 032:691 JLINK_IsHalted() -- CPU_ReadMem(2 bytes @ 0x20000000)  returns TRUE (0021ms, 2416ms total)
T3AC0 032:712 JLINK_ReadReg(R15)  returns 0x20000000 (0000ms, 2395ms total)
T3AC0 032:713 JLINK_ClrBPEx(BPHandle = 0x0000000C)  returns 0x00 (0000ms, 2396ms total)
T3AC0 032:713 JLINK_ReadReg(R0)  returns 0x00000000 (0001ms, 2397ms total)
T3AC0 032:715 JLINK_WriteMem(0x20000164, 0x029C Bytes, ...) -- Data:  BC FD 18 B1 A4 F8 44 60 20 87 03 E0 28 46 00 F0 ... -- CPU_WriteMem(668 bytes @ 0x20000164)  returns 0x29C (0010ms, 2407ms total)
T3AC0 032:725 JLINK_WriteMem(0x20000400, 0x0164 Bytes, ...) -- Data:  21 46 30 46 FF F7 F7 F9 14 F8 75 0F 40 F0 0F 00 ... -- CPU_WriteMem(356 bytes @ 0x20000400)  returns 0x164 (0007ms, 2414ms total)
T3AC0 032:733 JLINK_WriteReg(R0, 0x08002000)  returns 0x00 (0000ms, 2415ms total)
T3AC0 032:733 JLINK_WriteReg(R1, 0x00000400)  returns 0x00 (0001ms, 2416ms total)
T3AC0 032:734 JLINK_WriteReg(R2, 0x20000164)  returns 0x00 (0001ms, 2417ms total)
T3AC0 032:735 JLINK_WriteReg(R3, 0x00000000)  returns 0x00 (0001ms, 2418ms total)
T3AC0 032:736 JLINK_WriteReg(R4, 0x00000000)  returns 0x00 (0001ms, 2419ms total)
T3AC0 032:737 JLINK_WriteReg(R5, 0x00000000)  returns 0x00 (0000ms, 2419ms total)
T3AC0 032:737 JLINK_WriteReg(R6, 0x00000000)  returns 0x00 (0001ms, 2420ms total)
T3AC0 032:738 JLINK_WriteReg(R7, 0x00000000)  returns 0x00 (0000ms, 2420ms total)
T3AC0 032:738 JLINK_WriteReg(R8, 0x00000000)  returns 0x00 (0000ms, 2420ms total)
T3AC0 032:738 JLINK_WriteReg(R9, 0x20000160)  returns 0x00 (0001ms, 2421ms total)
T3AC0 032:739 JLINK_WriteReg(R10, 0x00000000)  returns 0x00 (0000ms, 2421ms total)
T3AC0 032:739 JLINK_WriteReg(R11, 0x00000000)  returns 0x00 (0001ms, 2422ms total)
T3AC0 032:740 JLINK_WriteReg(R12, 0x00000000)  returns 0x00 (0000ms, 2422ms total)
T3AC0 032:740 JLINK_WriteReg(R13, 0x20000800)  returns 0x00 (0001ms, 2423ms total)
T3AC0 032:741 JLINK_WriteReg(R14, 0x20000001)  returns 0x00 (0000ms, 2423ms total)
T3AC0 032:742 JLINK_WriteReg(R15, 0x200000F4)  returns 0x00 (0000ms, 2424ms total)
T3AC0 032:743 JLINK_WriteReg(XPSR, 0x01000000)  returns 0x00 (0001ms, 2425ms total)
T3AC0 032:748 JLINK_WriteReg(MSP, 0x20000800)  returns 0x00 (0001ms, 2426ms total)
T3AC0 032:749 JLINK_WriteReg(PSP, 0x20000800)  returns 0x00 (0001ms, 2427ms total)
T3AC0 032:750 JLINK_WriteReg(CFBP, 0x00000000)  returns 0x00 (0000ms, 2427ms total)
T3AC0 032:751 JLINK_SetBPEx(Addr = 0x20000000, Type = 0xFFFFFFF2)  returns 0x0000000D (0000ms, 2428ms total)
T3AC0 032:751 JLINK_Go() (0010ms, 2438ms total)
T3AC0 032:762 JLINK_IsHalted()  returns FALSE (0005ms, 2444ms total)
T3AC0 032:776 JLINK_IsHalted()  returns FALSE (0004ms, 2443ms total)
T3AC0 032:782 JLINK_IsHalted()  returns FALSE (0004ms, 2443ms total)
T3AC0 032:788 JLINK_IsHalted() -- CPU_ReadMem(2 bytes @ 0x20000000)  returns TRUE (0016ms, 2455ms total)
T3AC0 032:804 JLINK_ReadReg(R15)  returns 0x20000000 (0001ms, 2440ms total)
T3AC0 032:805 JLINK_ClrBPEx(BPHandle = 0x0000000D)  returns 0x00 (0000ms, 2440ms total)
T3AC0 032:806 JLINK_ReadReg(R0)  returns 0x00000000 (0000ms, 2441ms total)
T3AC0 032:808 JLINK_WriteMem(0x20000164, 0x029C Bytes, ...) -- Data:  02 20 2A 20 01 F0 06 FC 71 1E BD E8 F0 41 2A 20 ... -- CPU_WriteMem(668 bytes @ 0x20000164)  returns 0x29C (0011ms, 2452ms total)
T3AC0 032:819 JLINK_WriteMem(0x20000400, 0x0164 Bytes, ...) -- Data:  DB 48 0A 30 B0 F9 00 00 B0 42 02 D1 01 20 BD E8 ... -- CPU_WriteMem(356 bytes @ 0x20000400)  returns 0x164 (0007ms, 2459ms total)
T3AC0 032:826 JLINK_WriteReg(R0, 0x08002400)  returns 0x00 (0001ms, 2460ms total)
T3AC0 032:827 JLINK_WriteReg(R1, 0x00000400)  returns 0x00 (0001ms, 2461ms total)
T3AC0 032:828 JLINK_WriteReg(R2, 0x20000164)  returns 0x00 (0000ms, 2461ms total)
T3AC0 032:828 JLINK_WriteReg(R3, 0x00000000)  returns 0x00 (0001ms, 2462ms total)
T3AC0 032:829 JLINK_WriteReg(R4, 0x00000000)  returns 0x00 (0000ms, 2462ms total)
T3AC0 032:830 JLINK_WriteReg(R5, 0x00000000)  returns 0x00 (0000ms, 2463ms total)
T3AC0 032:830 JLINK_WriteReg(R6, 0x00000000)  returns 0x00 (0001ms, 2464ms total)
T3AC0 032:831 JLINK_WriteReg(R7, 0x00000000)  returns 0x00 (0001ms, 2465ms total)
T3AC0 032:832 JLINK_WriteReg(R8, 0x00000000)  returns 0x00 (0000ms, 2465ms total)
T3AC0 032:833 JLINK_WriteReg(R9, 0x20000160)  returns 0x00 (0000ms, 2466ms total)
T3AC0 032:833 JLINK_WriteReg(R10, 0x00000000)  returns 0x00 (0001ms, 2467ms total)
T3AC0 032:834 JLINK_WriteReg(R11, 0x00000000)  returns 0x00 (0001ms, 2468ms total)
T3AC0 032:835 JLINK_WriteReg(R12, 0x00000000)  returns 0x00 (0001ms, 2469ms total)
T3AC0 032:836 JLINK_WriteReg(R13, 0x20000800)  returns 0x00 (0001ms, 2470ms total)
T3AC0 032:837 JLINK_WriteReg(R14, 0x20000001)  returns 0x00 (0001ms, 2471ms total)
T3AC0 032:838 JLINK_WriteReg(R15, 0x200000F4)  returns 0x00 (0000ms, 2471ms total)
T3AC0 032:839 JLINK_WriteReg(XPSR, 0x01000000)  returns 0x00 (0000ms, 2472ms total)
T3AC0 032:839 JLINK_WriteReg(MSP, 0x20000800)  returns 0x00 (0001ms, 2473ms total)
T3AC0 032:840 JLINK_WriteReg(PSP, 0x20000800)  returns 0x00 (0000ms, 2473ms total)
T3AC0 032:840 JLINK_WriteReg(CFBP, 0x00000000)  returns 0x00 (0002ms, 2475ms total)
T3AC0 032:842 JLINK_SetBPEx(Addr = 0x20000000, Type = 0xFFFFFFF2)  returns 0x0000000E (0001ms, 2476ms total)
T3AC0 032:843 JLINK_Go() (0008ms, 2484ms total)
T3AC0 032:851 JLINK_IsHalted()  returns FALSE (0004ms, 2488ms total)
T3AC0 032:858 JLINK_IsHalted()  returns FALSE (0006ms, 2490ms total)
T3AC0 032:868 JLINK_IsHalted()  returns FALSE (0004ms, 2488ms total)
T3AC0 032:874 JLINK_IsHalted()  returns FALSE (0003ms, 2487ms total)
T3AC0 032:879 JLINK_IsHalted() -- CPU_ReadMem(2 bytes @ 0x20000000)  returns TRUE (0017ms, 2501ms total)
T3AC0 032:896 JLINK_ReadReg(R15)  returns 0x20000000 (0001ms, 2485ms total)
T3AC0 032:897 JLINK_ClrBPEx(BPHandle = 0x0000000E)  returns 0x00 (0001ms, 2486ms total)
T3AC0 032:898 JLINK_ReadReg(R0)  returns 0x00000000 (0006ms, 2492ms total)
T3AC0 032:907 JLINK_WriteMem(0x20000164, 0x029C Bytes, ...) -- Data:  02 F0 33 F9 B5 F9 00 00 20 64 B5 F9 02 00 60 64 ... -- CPU_WriteMem(668 bytes @ 0x20000164)  returns 0x29C (0011ms, 2503ms total)
T3AC0 032:918 JLINK_WriteMem(0x20000400, 0x0164 Bytes, ...) -- Data:  00 01 69 46 30 46 01 F0 5F FB B0 B1 E0 07 02 D0 ... -- CPU_WriteMem(356 bytes @ 0x20000400)  returns 0x164 (0007ms, 2510ms total)
T3AC0 032:925 JLINK_WriteReg(R0, 0x08002800)  returns 0x00 (0001ms, 2511ms total)
T3AC0 032:926 JLINK_WriteReg(R1, 0x00000400)  returns 0x00 (0000ms, 2511ms total)
T3AC0 032:926 JLINK_WriteReg(R2, 0x20000164)  returns 0x00 (0001ms, 2512ms total)
T3AC0 032:927 JLINK_WriteReg(R3, 0x00000000)  returns 0x00 (0001ms, 2513ms total)
T3AC0 032:929 JLINK_WriteReg(R4, 0x00000000)  returns 0x00 (0000ms, 2514ms total)
T3AC0 032:929 JLINK_WriteReg(R5, 0x00000000)  returns 0x00 (0000ms, 2514ms total)
T3AC0 032:930 JLINK_WriteReg(R6, 0x00000000)  returns 0x00 (0001ms, 2516ms total)
T3AC0 032:931 JLINK_WriteReg(R7, 0x00000000)  returns 0x00 (0000ms, 2516ms total)
T3AC0 032:931 JLINK_WriteReg(R8, 0x00000000)  returns 0x00 (0001ms, 2517ms total)
T3AC0 032:932 JLINK_WriteReg(R9, 0x20000160)  returns 0x00 (0001ms, 2518ms total)
T3AC0 032:933 JLINK_WriteReg(R10, 0x00000000)  returns 0x00 (0001ms, 2519ms total)
T3AC0 032:934 JLINK_WriteReg(R11, 0x00000000)  returns 0x00 (0001ms, 2520ms total)
T3AC0 032:935 JLINK_WriteReg(R12, 0x00000000)  returns 0x00 (0001ms, 2521ms total)
T3AC0 032:936 JLINK_WriteReg(R13, 0x20000800)  returns 0x00 (0000ms, 2521ms total)
T3AC0 032:936 JLINK_WriteReg(R14, 0x20000001)  returns 0x00 (0002ms, 2523ms total)
T3AC0 032:938 JLINK_WriteReg(R15, 0x200000F4)  returns 0x00 (0001ms, 2524ms total)
T3AC0 032:939 JLINK_WriteReg(XPSR, 0x01000000)  returns 0x00 (0000ms, 2524ms total)
T3AC0 032:939 JLINK_WriteReg(MSP, 0x20000800)  returns 0x00 (0001ms, 2525ms total)
T3AC0 032:940 JLINK_WriteReg(PSP, 0x20000800)  returns 0x00 (0000ms, 2525ms total)
T3AC0 032:941 JLINK_WriteReg(CFBP, 0x00000000)  returns 0x00 (0000ms, 2526ms total)
T3AC0 032:941 JLINK_SetBPEx(Addr = 0x20000000, Type = 0xFFFFFFF2)  returns 0x0000000F (0000ms, 2526ms total)
T3AC0 032:942 JLINK_Go() (0010ms, 2537ms total)
T3AC0 032:953 JLINK_IsHalted()  returns FALSE (0004ms, 2542ms total)
T3AC0 032:961 JLINK_IsHalted()  returns FALSE (0006ms, 2544ms total)
T3AC0 032:970 JLINK_IsHalted()  returns FALSE (0004ms, 2542ms total)
T3AC0 032:977 JLINK_IsHalted()  returns FALSE (0006ms, 2544ms total)
T3AC0 032:985 JLINK_IsHalted() -- CPU_ReadMem(2 bytes @ 0x20000000)  returns TRUE (0017ms, 2555ms total)
T3AC0 033:004 JLINK_ReadReg(R15)  returns 0x20000000 (0000ms, 2538ms total)
T3AC0 033:005 JLINK_ClrBPEx(BPHandle = 0x0000000F)  returns 0x00 (0000ms, 2539ms total)
T3AC0 033:005 JLINK_ReadReg(R0)  returns 0x00000000 (0001ms, 2540ms total)
T3AC0 033:007 JLINK_WriteMem(0x20000164, 0x029C Bytes, ...) -- Data:  BB F9 08 00 00 9F 58 B1 01 F0 2F FC 80 46 38 46 ... -- CPU_WriteMem(668 bytes @ 0x20000164)  returns 0x29C (0010ms, 2550ms total)
T3AC0 033:018 JLINK_WriteMem(0x20000400, 0x0164 Bytes, ...) -- Data:  68 46 00 F0 8C FD B6 F9 12 10 19 B1 68 46 FF F7 ... -- CPU_WriteMem(356 bytes @ 0x20000400)  returns 0x164 (0007ms, 2558ms total)
T3AC0 033:025 JLINK_WriteReg(R0, 0x08002C00)  returns 0x00 (0001ms, 2559ms total)
T3AC0 033:026 JLINK_WriteReg(R1, 0x00000400)  returns 0x00 (0000ms, 2559ms total)
T3AC0 033:026 JLINK_WriteReg(R2, 0x20000164)  returns 0x00 (0001ms, 2560ms total)
T3AC0 033:027 JLINK_WriteReg(R3, 0x00000000)  returns 0x00 (0000ms, 2560ms total)
T3AC0 033:027 JLINK_WriteReg(R4, 0x00000000)  returns 0x00 (0001ms, 2561ms total)
T3AC0 033:028 JLINK_WriteReg(R5, 0x00000000)  returns 0x00 (0001ms, 2562ms total)
T3AC0 033:029 JLINK_WriteReg(R6, 0x00000000)  returns 0x00 (0000ms, 2562ms total)
T3AC0 033:030 JLINK_WriteReg(R7, 0x00000000)  returns 0x00 (0000ms, 2563ms total)
T3AC0 033:031 JLINK_WriteReg(R8, 0x00000000)  returns 0x00 (0001ms, 2565ms total)
T3AC0 033:032 JLINK_WriteReg(R9, 0x20000160)  returns 0x00 (0001ms, 2566ms total)
T3AC0 033:034 JLINK_WriteReg(R10, 0x00000000)  returns 0x00 (0002ms, 2569ms total)
T3AC0 033:036 JLINK_WriteReg(R11, 0x00000000)  returns 0x00 (0000ms, 2569ms total)
T3AC0 033:037 JLINK_WriteReg(R12, 0x00000000)  returns 0x00 (0000ms, 2570ms total)
T3AC0 033:037 JLINK_WriteReg(R13, 0x20000800)  returns 0x00 (0001ms, 2571ms total)
T3AC0 033:038 JLINK_WriteReg(R14, 0x20000001)  returns 0x00 (0001ms, 2572ms total)
T3AC0 033:039 JLINK_WriteReg(R15, 0x200000F4)  returns 0x00 (0000ms, 2572ms total)
T3AC0 033:040 JLINK_WriteReg(XPSR, 0x01000000)  returns 0x00 (0000ms, 2573ms total)
